
T2F78 000:279 SEGGER J-Link V4.98e Log File (0001ms, 0267ms total)
T2F78 000:279 DLL Compiled: May  5 2015 11:00:52 (0001ms, 0267ms total)
T2F78 000:279 Logging started @ 2017-08-14 14:23 (0001ms, 0267ms total)
T2F78 000:280 JLINK_SetWarnOutHandler(...) (0000ms, 0267ms total)
T2F78 000:280 JLINK_OpenEx(...)
Firmware: J-Link V9 compiled Sep  1 2016 18:29:50
Hardware: V9.40
S/N: 59407358
Feature(s): RDI, GDB, FlashDL, FlashBP, JFlash  returns O.K. (0264ms, 0531ms total)
T2F78 000:544 JLINK_SetErrorOutHandler(...) (0000ms, 0531ms total)
T2F78 000:544 JLINK_ExecCommand("ProjectFile = "E:\robot_to_go\codemao\box_robot\USER\JLinkSettings.ini"", ...)  returns 0x00 (0000ms, 0531ms total)
T2F78 000:544 JLINK_ExecCommand("Device = STM32F103C8", ...)Device "STM32F103C8" selected.  returns 0x00 (0003ms, 0534ms total)
T2F78 000:547 JLINK_ExecCommand("DisableConnectionTimeout", ...)  returns 0x01 (0000ms, 0534ms total)
T2F78 000:547 JLINK_GetHardwareVersion()  returns 0x16F30 (0000ms, 0534ms total)
T2F78 000:547 JLINK_GetDLLVersion()  returns 49805 (0000ms, 0534ms total)
T2F78 000:547 JLINK_GetFirmwareString(...) (0000ms, 0534ms total)
T2F78 000:548 JLINK_GetDLLVersion()  returns 49805 (0000ms, 0534ms total)
T2F78 000:548 JLINK_GetCompileDateTime() (0000ms, 0534ms total)
T2F78 000:548 JLINK_GetFirmwareString(...) (0000ms, 0534ms total)
T2F78 000:548 JLINK_GetHardwareVersion()  returns 0x16F30 (0000ms, 0534ms total)
T2F78 000:549 JLINK_TIF_Select(JLINKARM_TIF_SWD)  returns 0x00 (0001ms, 0535ms total)
T2F78 000:550 JLINK_SetSpeed(5000) (0000ms, 0535ms total)
T2F78 000:550 JLINK_GetId() >0x108 TIF>Found SWD-DP with ID 0x1BA01477 >0x0D TIF> >0x28 TIF> >0x0D TIF> >0x28 TIF> >0x0D TIF> >0x21 TIF> >0x0D TIF> >0x28 TIF> >0x0D TIF> >0x28 TIF> >0x0D TIF> >0x28 TIF> >0x0D TIF> >0x21 TIF> >0x0D TIF> >0x21 TIF> >0x0D TIF> >0x28 TIF> >0x0D TIF> >0x21 TIF> >0x0D TIF> >0x21 TIF> >0x108 TIF>Found SWD-DP with ID 0x1BA01477 >0x0D TIF> >0x21 TIF> >0x0D TIF> >0x28 TIF> >0x0D TIF> >0x28 TIF> >0x0D TIF> >0x21 TIF> >0x0D TIF> >0x28 TIF> >0x0D TIF> >0x21 TIF> >0x0D TIF> >0x21 TIF>
 >0x0D TIF> >0x21 TIF> >0x0D TIF> >0x21 TIF> >0x0D TIF> >0x28 TIF> >0x0D TIF> >0x28 TIF> >0x0D TIF> >0x21 TIF> >0x0D TIF> >0x28 TIF> >0x0D TIF> >0x28 TIF> >0x0D TIF> >0x28 TIF> >0x0D TIF> >0x21 TIF> >0x0D TIF> >0x21 TIF> >0x0D TIF> >0x28 TIF> >0x0D TIF> >0x21 TIF> >0x0D TIF> >0x21 TIF>Found Cortex-M3 r1p1, Little endian. -- CPU_WriteMem(4 bytes @ 0xE0002000) -- CPU_ReadMem(4 bytes @ 0xE000EDF0) -- CPU_ReadMem(4 bytes @ 0xE0002000)FPUnit: 6 code (BP) slots and 2 literal slots
 -- CPU_ReadMem(4 bytes @ 0xE000EDFC) -- CPU_ReadMem(4 bytes @ 0xE0001000) -- CPU_WriteMem(4 bytes @ 0xE0001000) -- CPU_ReadMem(4 bytes @ 0xE000ED88) -- CPU_WriteMem(4 bytes @ 0xE000ED88) -- CPU_ReadMem(4 bytes @ 0xE000ED88) -- CPU_WriteMem(4 bytes @ 0xE000ED88)CoreSight components:ROMTbl 0 @ E00FF000 -- CPU_ReadMem(16 bytes @ 0xE00FF000) -- CPU_ReadMem(16 bytes @ 0xE000EFF0) -- CPU_ReadMem(16 bytes @ 0xE000EFE0)ROMTbl 0 [0]: FFF0F000, CID: B105E00D, PID: 001BB000 SCS
 -- CPU_ReadMem(16 bytes @ 0xE0001FF0) -- CPU_ReadMem(16 bytes @ 0xE0001FE0)ROMTbl 0 [1]: FFF02000, CID: B105E00D, PID: 001BB002 DWT -- CPU_ReadMem(16 bytes @ 0xE0002FF0) -- CPU_ReadMem(16 bytes @ 0xE0002FE0)ROMTbl 0 [2]: FFF03000, CID: B105E00D, PID: 000BB003 FPB -- CPU_ReadMem(16 bytes @ 0xE0000FF0) -- CPU_ReadMem(16 bytes @ 0xE0000FE0)ROMTbl 0 [3]: FFF01000, CID: B105E00D, PID: 001BB001 ITM -- CPU_ReadMem(16 bytes @ 0xE00FF010) -- CPU_ReadMem(16 bytes @ 0xE0040FF0)
 -- CPU_ReadMem(16 bytes @ 0xE0040FE0)ROMTbl 0 [4]: FFF41000, CID: B105900D, PID: 001BB923 TPIU-Lite >0x0D TIF> >0x21 TIF>  returns 0x1BA01477 (0019ms, 0554ms total)
T2F78 000:569 JLINK_GetDLLVersion()  returns 49805 (0000ms, 0554ms total)
T2F78 000:569 JLINK_CORE_GetFound()  returns 0x30000FF (0000ms, 0554ms total)
T2F78 000:569 JLINK_GetDebugInfo(0x100) -- Value=0xE00FF003  returns 0x00 (0000ms, 0554ms total)
T2F78 000:570 JLINK_ReadMem (0xE00FF000, 0x0020 Bytes, ...) -- CPU is running -- CPU_ReadMem(32 bytes @ 0xE00FF000) - Data: 03 F0 F0 FF 03 20 F0 FF 03 30 F0 FF 03 10 F0 FF ...  returns 0x00 (0000ms, 0554ms total)
T2F78 000:570 JLINK_ReadMem (0xE000EFF0, 0x0010 Bytes, ...) -- CPU is running -- CPU_ReadMem(16 bytes @ 0xE000EFF0) - Data: 0D 00 00 00 E0 00 00 00 05 00 00 00 B1 00 00 00  returns 0x00 (0000ms, 0554ms total)
T2F78 000:570 JLINK_ReadMem (0xE000EFD0, 0x0020 Bytes, ...) -- CPU is running -- CPU_ReadMem(32 bytes @ 0xE000EFD0) - Data: 04 00 00 00 00 00 00 00 00 00 00 00 00 00 00 00 ...  returns 0x00 (0001ms, 0555ms total)
T2F78 000:571 JLINK_ReadMem (0xE0001FF0, 0x0010 Bytes, ...) -- CPU is running -- CPU_ReadMem(16 bytes @ 0xE0001FF0) - Data: 0D 00 00 00 E0 00 00 00 05 00 00 00 B1 00 00 00  returns 0x00 (0000ms, 0555ms total)
T2F78 000:571 JLINK_ReadMem (0xE0001FD0, 0x0020 Bytes, ...) -- CPU is running -- CPU_ReadMem(32 bytes @ 0xE0001FD0) - Data: 04 00 00 00 00 00 00 00 00 00 00 00 00 00 00 00 ...  returns 0x00 (0000ms, 0555ms total)
T2F78 000:571 JLINK_ReadMem (0xE0002FF0, 0x0010 Bytes, ...) -- CPU is running -- CPU_ReadMem(16 bytes @ 0xE0002FF0) - Data: 0D 00 00 00 E0 00 00 00 05 00 00 00 B1 00 00 00  returns 0x00 (0001ms, 0556ms total)
T2F78 000:572 JLINK_ReadMem (0xE0002FD0, 0x0020 Bytes, ...) -- CPU is running -- CPU_ReadMem(32 bytes @ 0xE0002FD0) - Data: 04 00 00 00 00 00 00 00 00 00 00 00 00 00 00 00 ...  returns 0x00 (0000ms, 0556ms total)
T2F78 000:572 JLINK_ReadMem (0xE0000FF0, 0x0010 Bytes, ...) -- CPU is running -- CPU_ReadMem(16 bytes @ 0xE0000FF0) - Data: 0D 00 00 00 E0 00 00 00 05 00 00 00 B1 00 00 00  returns 0x00 (0000ms, 0556ms total)
T2F78 000:572 JLINK_ReadMem (0xE0000FD0, 0x0020 Bytes, ...) -- CPU is running -- CPU_ReadMem(32 bytes @ 0xE0000FD0) - Data: 04 00 00 00 00 00 00 00 00 00 00 00 00 00 00 00 ...  returns 0x00 (0000ms, 0556ms total)
T2F78 000:572 JLINK_ReadMem (0xE0040FF0, 0x0010 Bytes, ...) -- CPU is running -- CPU_ReadMem(16 bytes @ 0xE0040FF0) - Data: 0D 00 00 00 90 00 00 00 05 00 00 00 B1 00 00 00  returns 0x00 (0001ms, 0557ms total)
T2F78 000:573 JLINK_ReadMem (0xE0040FD0, 0x0020 Bytes, ...) -- CPU is running -- CPU_ReadMem(32 bytes @ 0xE0040FD0) - Data: 04 00 00 00 00 00 00 00 00 00 00 00 00 00 00 00 ...  returns 0x00 (0000ms, 0557ms total)
T2F78 000:573 JLINK_ReadMemU32(0xE000ED00, 0x0001 Items, ...) -- CPU is running -- CPU_ReadMem(4 bytes @ 0xE000ED00) - Data: 31 C2 1F 41  returns 0x01 (0000ms, 0557ms total)
T2F78 000:573 JLINK_SetResetType(JLINKARM_RESET_TYPE_NORMAL)  returns JLINKARM_RESET_TYPE_NORMAL (0000ms, 0557ms total)
T2F78 000:573 JLINK_Reset() -- CPU is running -- CPU_WriteMem(4 bytes @ 0xE000EDF0) -- CPU is running -- CPU_WriteMem(4 bytes @ 0xE000EDFC) >0x35 TIF> -- CPU is running -- CPU_WriteMem(4 bytes @ 0xE000ED0C) -- CPU is running -- CPU_ReadMem(4 bytes @ 0xE000EDF0) -- CPU is running -- CPU_ReadMem(4 bytes @ 0xE000EDF0) -- CPU is running -- CPU_ReadMem(4 bytes @ 0xE000EDF0) -- CPU is running -- CPU_ReadMem(4 bytes @ 0xE000EDF0) -- CPU is running -- CPU_ReadMem(4 bytes @ 0xE000EDF0) -- CPU is running
 -- CPU_ReadMem(4 bytes @ 0xE000EDF0) -- CPU is running -- CPU_ReadMem(4 bytes @ 0xE000EDF0) -- CPU is running -- CPU_ReadMem(4 bytes @ 0xE000EDF0) -- CPU is running -- CPU_WriteMem(4 bytes @ 0xE000EDF0) -- CPU is running -- CPU_WriteMem(4 bytes @ 0xE000EDFC) -- CPU is running -- CPU_ReadMem(4 bytes @ 0xE000EDF0) -- CPU_WriteMem(4 bytes @ 0xE0002000) -- CPU_ReadMem(4 bytes @ 0xE000EDFC) -- CPU_ReadMem(4 bytes @ 0xE0001000) (0017ms, 0574ms total)
T2F78 000:590 JLINK_ReadReg(R15 (PC))  returns 0x08000388 (0000ms, 0574ms total)
T2F78 000:590 JLINK_ReadReg(XPSR)  returns 0x01000000 (0000ms, 0574ms total)
T2F78 000:590 JLINK_Halt()  returns 0x00 (0000ms, 0574ms total)
T2F78 000:590 JLINK_IsHalted()  returns TRUE (0000ms, 0574ms total)
T2F78 000:590 JLINK_ReadMemU32(0xE000EDF0, 0x0001 Items, ...) -- CPU_ReadMem(4 bytes @ 0xE000EDF0) - Data: 03 00 03 00  returns 0x01 (0000ms, 0574ms total)
T2F78 000:590 JLINK_WriteU32(0xE000EDF0, 0xA05F0003) -- CPU_WriteMem(4 bytes @ 0xE000EDF0)  returns 0x00 (0000ms, 0574ms total)
T2F78 000:590 JLINK_WriteU32(0xE000EDFC, 0x01000000) -- CPU_WriteMem(4 bytes @ 0xE000EDFC)  returns 0x00 (0001ms, 0575ms total)
T2F78 000:593 JLINK_GetHWStatus(...)  returns 0x00 (0000ms, 0575ms total)
T2F78 000:593 JLINK_GetNumBPUnits(Type = 0xFFFFFF00)  returns 0x06 (0000ms, 0575ms total)
T2F78 000:593 JLINK_GetNumBPUnits(Type = 0xF0)  returns 0x2000 (0000ms, 0575ms total)
T2F78 000:593 JLINK_GetNumWPUnits()  returns 0x04 (0000ms, 0575ms total)
T2F78 000:594 JLINK_GetSpeed()  returns 0xFA0 (0000ms, 0575ms total)
T2F78 000:594 JLINK_ReadMemU32(0xE000E004, 0x0001 Items, ...) -- CPU_ReadMem(4 bytes @ 0xE000E004) - Data: 01 00 00 00  returns 0x01 (0000ms, 0575ms total)
T2F78 000:594 JLINK_ReadMemU32(0xE000E004, 0x0001 Items, ...) -- CPU_ReadMem(4 bytes @ 0xE000E004) - Data: 01 00 00 00  returns 0x01 (0001ms, 0576ms total)
T2F78 000:595 JLINK_WriteMem(0xE0001000, 0x001C Bytes, ...) - Data: 01 00 00 00 00 00 00 00 00 00 00 00 00 00 00 00 ... -- CPU_WriteMem(28 bytes @ 0xE0001000)  returns 0x1C (0000ms, 0576ms total)
T2F78 000:595 JLINK_ReadMem (0xE0001000, 0x001C Bytes, ...) -- CPU_ReadMem(28 bytes @ 0xE0001000) - Data: 01 00 00 40 00 00 00 00 00 00 00 00 00 00 00 00 ...  returns 0x00 (0001ms, 0577ms total)
T2F78 000:596 JLINK_ReadReg(R15 (PC))  returns 0x08000388 (0000ms, 0577ms total)
T2F78 000:596 JLINK_ReadReg(XPSR)  returns 0x01000000 (0000ms, 0577ms total)
T2F78 000:667 JLINK_SetResetType(JLINKARM_RESET_TYPE_NORMAL)  returns JLINKARM_RESET_TYPE_NORMAL (0000ms, 0577ms total)
T2F78 000:667 JLINK_Reset() -- CPU_WriteMem(4 bytes @ 0xE000EDF0) -- CPU_WriteMem(4 bytes @ 0xE000EDFC) >0x35 TIF> -- CPU_WriteMem(4 bytes @ 0xE000ED0C) -- CPU_ReadMem(4 bytes @ 0xE000EDF0) -- CPU_ReadMem(4 bytes @ 0xE000EDF0) -- CPU_ReadMem(4 bytes @ 0xE000EDF0) -- CPU_ReadMem(4 bytes @ 0xE000EDF0) -- CPU_ReadMem(4 bytes @ 0xE000EDF0) -- CPU_ReadMem(4 bytes @ 0xE000EDF0) -- CPU_WriteMem(4 bytes @ 0xE000EDF0) -- CPU_WriteMem(4 bytes @ 0xE000EDFC) -- CPU is running -- CPU_ReadMem(4 bytes @ 0xE000EDF0)
 -- CPU_WriteMem(4 bytes @ 0xE0002000) -- CPU_ReadMem(4 bytes @ 0xE000EDFC) -- CPU_ReadMem(4 bytes @ 0xE0001000) (0017ms, 0594ms total)
T2F78 000:684 JLINK_ReadReg(R15 (PC))  returns 0x08000388 (0000ms, 0594ms total)
T2F78 000:684 JLINK_ReadReg(XPSR)  returns 0x01000000 (0000ms, 0594ms total)
T2F78 000:684 JLINK_ReadMem (0x08000388, 0x003C Bytes, ...) -- CPU_ReadMem(128 bytes @ 0x08000380) -- Updating C cache (128 bytes @ 0x08000380) -- Read from C cache (60 bytes @ 0x08000388) - Data: 06 48 80 47 06 48 00 47 FE E7 FE E7 FE E7 FE E7 ...  returns 0x00 (0001ms, 0595ms total)
T2F78 000:811 JLINK_ReadMem (0x40010800, 0x000C Bytes, ...) -- CPU_ReadMem(12 bytes @ 0x40010800) - Data: 44 44 44 44 44 44 84 88 00 00 00 00  returns 0x00 (0001ms, 0596ms total)
T2F78 000:812 JLINK_ReadMem (0x4001080C, 0x0004 Bytes, ...) -- CPU_ReadMem(4 bytes @ 0x4001080C) - Data: 00 A0 00 00  returns 0x00 (0000ms, 0596ms total)
T2F78 000:812 JLINK_ReadMem (0x40010818, 0x0004 Bytes, ...) -- CPU_ReadMem(4 bytes @ 0x40010818) - Data: 00 00 00 00  returns 0x00 (0000ms, 0596ms total)
T2F78 000:852 JLINK_ReadMem (0x40013800, 0x0018 Bytes, ...) -- CPU_ReadMem(24 bytes @ 0x40013800) - Data: 00 00 00 00 00 00 00 00 00 00 00 00 00 00 00 00 ...  returns 0x00 (0000ms, 0596ms total)
T2F78 000:852 JLINK_ReadMem (0x40013818, 0x0004 Bytes, ...) -- CPU_ReadMem(4 bytes @ 0x40013818) - Data: 00 00 00 00  returns 0x00 (0000ms, 0596ms total)
T2F78 000:893 JLINK_ReadMem (0x40004800, 0x0018 Bytes, ...) -- CPU_ReadMem(24 bytes @ 0x40004800) - Data: 00 00 00 00 00 00 00 00 00 00 00 00 00 00 00 00 ...  returns 0x00 (0001ms, 0597ms total)
T2F78 000:894 JLINK_ReadMem (0x40004818, 0x0004 Bytes, ...) -- CPU_ReadMem(4 bytes @ 0x40004818) - Data: 00 00 00 00  returns 0x00 (0000ms, 0597ms total)
T2F78 002:253 JLINK_ReadMem (0x20000138, 0x0004 Bytes, ...) -- CPU_ReadMem(64 bytes @ 0x20000100) -- Updating C cache (64 bytes @ 0x20000100) -- Read from C cache (4 bytes @ 0x20000138) - Data: 00 00 00 00  returns 0x00 (0001ms, 0598ms total)
T3F8C 002:299 JLINK_SetBPEx(Addr = 0x08000100, Type = 0xFFFFFFF2)  returns 0x00000001 (0000ms, 0598ms total)
T3F8C 002:299 JLINK_SetBPEx(Addr = 0x08003958, Type = 0xFFFFFFF2)  returns 0x00000002 (0000ms, 0598ms total)
T3F8C 002:299 JLINK_SetBPEx(Addr = 0x08003B4A, Type = 0xFFFFFFF2)  returns 0x00000003 (0000ms, 0598ms total)
T3F8C 002:299 JLINK_SetBPEx(Addr = 0x08003B6A, Type = 0xFFFFFFF2)  returns 0x00000004 (0000ms, 0598ms total)
T3F8C 002:299 JLINK_Go() -- CPU_WriteMem(4 bytes @ 0xE0002000) -- CPU_WriteMem(4 bytes @ 0xE0002000) -- CPU_WriteMem(4 bytes @ 0xE0002000) -- CPU_WriteMem(4 bytes @ 0xE0002000) -- CPU_ReadMem(4 bytes @ 0xE0001000) -- CPU_WriteMem(4 bytes @ 0xE0002008) -- CPU_WriteMem(4 bytes @ 0xE000200C) -- CPU_WriteMem(4 bytes @ 0xE0002010) -- CPU_WriteMem(4 bytes @ 0xE0002014) -- CPU_WriteMem(4 bytes @ 0xE0002018) -- CPU_WriteMem(4 bytes @ 0xE000201C) -- CPU_WriteMem(4 bytes @ 0xE0001004) (0003ms, 0601ms total)
T3F8C 002:402 JLINK_IsHalted()  returns TRUE (0002ms, 0603ms total)
T3F8C 002:404 JLINK_Halt()  returns 0x00 (0000ms, 0601ms total)
T3F8C 002:404 JLINK_IsHalted()  returns TRUE (0000ms, 0601ms total)
T3F8C 002:404 JLINK_IsHalted()  returns TRUE (0000ms, 0601ms total)
T3F8C 002:404 JLINK_IsHalted()  returns TRUE (0000ms, 0601ms total)
T3F8C 002:404 JLINK_ReadReg(R15 (PC))  returns 0x08000100 (0000ms, 0601ms total)
T3F8C 002:404 JLINK_ReadReg(XPSR)  returns 0x61000000 (0000ms, 0601ms total)
T3F8C 002:404 JLINK_ClrBPEx(BPHandle = 0x00000001)  returns 0x00 (0000ms, 0601ms total)
T3F8C 002:404 JLINK_ClrBPEx(BPHandle = 0x00000002)  returns 0x00 (0000ms, 0601ms total)
T3F8C 002:404 JLINK_ClrBPEx(BPHandle = 0x00000003)  returns 0x00 (0000ms, 0601ms total)
T3F8C 002:404 JLINK_ClrBPEx(BPHandle = 0x00000004)  returns 0x00 (0000ms, 0601ms total)
T3F8C 002:404 JLINK_ReadMemU32(0xE000ED30, 0x0001 Items, ...) -- CPU_ReadMem(4 bytes @ 0xE000ED30) - Data: 02 00 00 00  returns 0x01 (0001ms, 0602ms total)
T3F8C 002:405 JLINK_ReadMemU32(0xE0001028, 0x0001 Items, ...) -- CPU_ReadMem(4 bytes @ 0xE0001028) - Data: 00 00 00 00  returns 0x01 (0000ms, 0602ms total)
T3F8C 002:405 JLINK_ReadMemU32(0xE0001038, 0x0001 Items, ...) -- CPU_ReadMem(4 bytes @ 0xE0001038) - Data: 00 02 00 00  returns 0x01 (0000ms, 0602ms total)
T3F8C 002:405 JLINK_ReadMemU32(0xE0001048, 0x0001 Items, ...) -- CPU_ReadMem(4 bytes @ 0xE0001048) - Data: 00 00 00 00  returns 0x01 (0001ms, 0603ms total)
T3F8C 002:406 JLINK_ReadMemU32(0xE0001058, 0x0001 Items, ...) -- CPU_ReadMem(4 bytes @ 0xE0001058) - Data: 00 00 00 00  returns 0x01 (0000ms, 0603ms total)
T3F8C 002:406 JLINK_ReadReg(R0)  returns 0x08000101 (0000ms, 0603ms total)
T3F8C 002:406 JLINK_ReadReg(R1)  returns 0x20000718 (0000ms, 0603ms total)
T3F8C 002:406 JLINK_ReadReg(R2)  returns 0x00000000 (0000ms, 0603ms total)
T3F8C 002:406 JLINK_ReadReg(R3)  returns 0x080043CB (0000ms, 0603ms total)
T3F8C 002:406 JLINK_ReadReg(R4)  returns 0x080043F8 (0000ms, 0603ms total)
T3F8C 002:406 JLINK_ReadReg(R5)  returns 0x080043F8 (0000ms, 0603ms total)
T3F8C 002:406 JLINK_ReadReg(R6)  returns 0x00000000 (0000ms, 0603ms total)
T3F8C 002:406 JLINK_ReadReg(R7)  returns 0x00000000 (0000ms, 0603ms total)
T3F8C 002:406 JLINK_ReadReg(R8)  returns 0x00000000 (0000ms, 0603ms total)
T3F8C 002:406 JLINK_ReadReg(R9)  returns 0x20000160 (0000ms, 0603ms total)
T3F8C 002:406 JLINK_ReadReg(R10)  returns 0x00000000 (0000ms, 0603ms total)
T3F8C 002:406 JLINK_ReadReg(R11)  returns 0x00000000 (0000ms, 0603ms total)
T3F8C 002:406 JLINK_ReadReg(R12)  returns 0x00000008 (0000ms, 0603ms total)
T3F8C 002:406 JLINK_ReadReg(R13 (SP))  returns 0x20000718 (0000ms, 0603ms total)
T3F8C 002:406 JLINK_ReadReg(R14)  returns 0x0800433D (0000ms, 0603ms total)
T3F8C 002:406 JLINK_ReadReg(R15 (PC))  returns 0x08000100 (0000ms, 0603ms total)
T3F8C 002:406 JLINK_ReadReg(XPSR)  returns 0x61000000 (0000ms, 0603ms total)
T3F8C 002:406 JLINK_ReadReg(MSP)  returns 0x20000718 (0000ms, 0603ms total)
T3F8C 002:406 JLINK_ReadReg(PSP)  returns 0x20001000 (0000ms, 0603ms total)
T3F8C 002:406 JLINK_ReadReg(CFBP)  returns 0x00000000 (0000ms, 0603ms total)
T2F78 002:407 JLINK_ReadMem (0x20000138, 0x0004 Bytes, ...) -- CPU_ReadMem(64 bytes @ 0x20000100) -- Updating C cache (64 bytes @ 0x20000100) -- Read from C cache (4 bytes @ 0x20000138) - Data: 00 00 00 00  returns 0x00 (0001ms, 0604ms total)
T2F78 002:408 JLINK_ReadMem (0x40010800, 0x000C Bytes, ...) -- CPU_ReadMem(12 bytes @ 0x40010800) - Data: 44 44 44 44 44 44 84 88 00 00 00 00  returns 0x00 (0000ms, 0604ms total)
T2F78 002:408 JLINK_ReadMem (0x4001080C, 0x0004 Bytes, ...) -- CPU_ReadMem(4 bytes @ 0x4001080C) - Data: 00 A0 00 00  returns 0x00 (0001ms, 0605ms total)
T2F78 002:409 JLINK_ReadMem (0x40010818, 0x0004 Bytes, ...) -- CPU_ReadMem(4 bytes @ 0x40010818) - Data: 00 00 00 00  returns 0x00 (0000ms, 0605ms total)
T2F78 002:409 JLINK_ReadMem (0x40013800, 0x0018 Bytes, ...) -- CPU_ReadMem(24 bytes @ 0x40013800) - Data: 00 00 00 00 00 00 00 00 00 00 00 00 00 00 00 00 ...  returns 0x00 (0001ms, 0606ms total)
T2F78 002:410 JLINK_ReadMem (0x40013818, 0x0004 Bytes, ...) -- CPU_ReadMem(4 bytes @ 0x40013818) - Data: 00 00 00 00  returns 0x00 (0000ms, 0606ms total)
T2F78 002:410 JLINK_ReadMem (0x40004800, 0x0018 Bytes, ...) -- CPU_ReadMem(24 bytes @ 0x40004800) - Data: 00 00 00 00 00 00 00 00 00 00 00 00 00 00 00 00 ...  returns 0x00 (0000ms, 0606ms total)
T2F78 002:410 JLINK_ReadMem (0x40004818, 0x0004 Bytes, ...) -- CPU_ReadMem(4 bytes @ 0x40004818) - Data: 00 00 00 00  returns 0x00 (0000ms, 0606ms total)
T2F78 002:413 JLINK_ReadMem (0x08000100, 0x003C Bytes, ...) -- CPU_ReadMem(64 bytes @ 0x08000100) -- Updating C cache (64 bytes @ 0x08000100) -- Read from C cache (60 bytes @ 0x08000100) - Data: 1C B5 02 F0 59 FB 00 20 00 90 01 90 00 BF 03 F0 ...  returns 0x00 (0001ms, 0607ms total)
T3F8C 004:560 JLINK_SetBPEx(Addr = 0x08003958, Type = 0xFFFFFFF2)  returns 0x00000005 (0001ms, 0608ms total)
T3F8C 004:561 JLINK_SetBPEx(Addr = 0x08003B4A, Type = 0xFFFFFFF2)  returns 0x00000006 (0000ms, 0608ms total)
T3F8C 004:561 JLINK_SetBPEx(Addr = 0x08003B6A, Type = 0xFFFFFFF2)  returns 0x00000007 (0000ms, 0608ms total)
T3F8C 004:561 JLINK_Go() -- CPU_WriteMem(4 bytes @ 0xE0002000) -- CPU_WriteMem(4 bytes @ 0xE0002000) -- CPU_WriteMem(4 bytes @ 0xE0002000) -- CPU_ReadMem(4 bytes @ 0xE0001000) -- CPU_WriteMem(4 bytes @ 0xE0002008) -- CPU_WriteMem(4 bytes @ 0xE000200C) -- CPU_WriteMem(4 bytes @ 0xE0002010) -- CPU_WriteMem(4 bytes @ 0xE0002014) (0002ms, 0610ms total)
T3F8C 004:664 JLINK_IsHalted()  returns TRUE (0001ms, 0612ms total)
T3F8C 004:666 JLINK_Halt()  returns 0x00 (0000ms, 0611ms total)
T3F8C 004:666 JLINK_IsHalted()  returns TRUE (0000ms, 0611ms total)
T3F8C 004:666 JLINK_IsHalted()  returns TRUE (0000ms, 0611ms total)
T3F8C 004:666 JLINK_IsHalted()  returns TRUE (0000ms, 0611ms total)
T3F8C 004:666 JLINK_ReadReg(R15 (PC))  returns 0x08003B4A (0000ms, 0611ms total)
T3F8C 004:666 JLINK_ReadReg(XPSR)  returns 0x6100001B (0000ms, 0611ms total)
T3F8C 004:666 JLINK_ClrBPEx(BPHandle = 0x00000005)  returns 0x00 (0000ms, 0611ms total)
T3F8C 004:666 JLINK_ClrBPEx(BPHandle = 0x00000006)  returns 0x00 (0000ms, 0611ms total)
T3F8C 004:666 JLINK_ClrBPEx(BPHandle = 0x00000007)  returns 0x00 (0000ms, 0611ms total)
T3F8C 004:666 JLINK_ReadMemU32(0xE000ED30, 0x0001 Items, ...) -- CPU_ReadMem(4 bytes @ 0xE000ED30) - Data: 02 00 00 00  returns 0x01 (0000ms, 0611ms total)
T3F8C 004:666 JLINK_ReadMemU32(0xE0001028, 0x0001 Items, ...) -- CPU_ReadMem(4 bytes @ 0xE0001028) - Data: 00 00 00 00  returns 0x01 (0000ms, 0611ms total)
T3F8C 004:666 JLINK_ReadMemU32(0xE0001038, 0x0001 Items, ...) -- CPU_ReadMem(4 bytes @ 0xE0001038) - Data: 00 02 00 00  returns 0x01 (0001ms, 0612ms total)
T3F8C 004:667 JLINK_ReadMemU32(0xE0001048, 0x0001 Items, ...) -- CPU_ReadMem(4 bytes @ 0xE0001048) - Data: 00 00 00 00  returns 0x01 (0000ms, 0612ms total)
T3F8C 004:667 JLINK_ReadMemU32(0xE0001058, 0x0001 Items, ...) -- CPU_ReadMem(4 bytes @ 0xE0001058) - Data: 00 00 00 00  returns 0x01 (0000ms, 0612ms total)
T3F8C 004:667 JLINK_ReadReg(R0)  returns 0x00000000 (0000ms, 0612ms total)
T3F8C 004:667 JLINK_ReadReg(R1)  returns 0x00000000 (0000ms, 0612ms total)
T3F8C 004:667 JLINK_ReadReg(R2)  returns 0x00000000 (0000ms, 0612ms total)
T3F8C 004:667 JLINK_ReadReg(R3)  returns 0x00000000 (0000ms, 0612ms total)
T3F8C 004:667 JLINK_ReadReg(R4)  returns 0x00000000 (0000ms, 0612ms total)
T3F8C 004:667 JLINK_ReadReg(R5)  returns 0x00000000 (0000ms, 0612ms total)
T3F8C 004:667 JLINK_ReadReg(R6)  returns 0x00000000 (0000ms, 0612ms total)
T3F8C 004:667 JLINK_ReadReg(R7)  returns 0x00000000 (0000ms, 0612ms total)
T3F8C 004:667 JLINK_ReadReg(R8)  returns 0x00000000 (0000ms, 0612ms total)
T3F8C 004:667 JLINK_ReadReg(R9)  returns 0x20000160 (0000ms, 0612ms total)
T3F8C 004:667 JLINK_ReadReg(R10)  returns 0x00000000 (0000ms, 0612ms total)
T3F8C 004:667 JLINK_ReadReg(R11)  returns 0x00000000 (0000ms, 0612ms total)
T3F8C 004:667 JLINK_ReadReg(R12)  returns 0x00000008 (0000ms, 0612ms total)
T3F8C 004:667 JLINK_ReadReg(R13 (SP))  returns 0x200006CC (0000ms, 0612ms total)
T3F8C 004:667 JLINK_ReadReg(R14)  returns 0x08003B8F (0000ms, 0612ms total)
T3F8C 004:667 JLINK_ReadReg(R15 (PC))  returns 0x08003B4A (0000ms, 0612ms total)
T3F8C 004:667 JLINK_ReadReg(XPSR)  returns 0x6100001B (0000ms, 0612ms total)
T3F8C 004:667 JLINK_ReadReg(MSP)  returns 0x200006CC (0000ms, 0612ms total)
T3F8C 004:667 JLINK_ReadReg(PSP)  returns 0x20001000 (0000ms, 0612ms total)
T3F8C 004:667 JLINK_ReadReg(CFBP)  returns 0x00000000 (0000ms, 0612ms total)
T2F78 004:671 JLINK_ReadMem (0x20000138, 0x0004 Bytes, ...) -- CPU_ReadMem(64 bytes @ 0x20000100) -- Updating C cache (64 bytes @ 0x20000100) -- Read from C cache (4 bytes @ 0x20000138) - Data: 00 00 00 00  returns 0x00 (0000ms, 0612ms total)
T2F78 004:677 JLINK_ReadMem (0x40010800, 0x000C Bytes, ...) -- CPU_ReadMem(12 bytes @ 0x40010800) - Data: 44 00 18 BB B1 14 81 18 30 86 00 00  returns 0x00 (0000ms, 0612ms total)
T2F78 004:677 JLINK_ReadMem (0x4001080C, 0x0004 Bytes, ...) -- CPU_ReadMem(4 bytes @ 0x4001080C) - Data: 20 A0 00 00  returns 0x00 (0001ms, 0613ms total)
T2F78 004:678 JLINK_ReadMem (0x40010818, 0x0004 Bytes, ...) -- CPU_ReadMem(4 bytes @ 0x40010818) - Data: 00 00 00 00  returns 0x00 (0000ms, 0613ms total)
T2F78 004:686 JLINK_ReadMem (0x40013800, 0x0018 Bytes, ...) -- CPU_ReadMem(24 bytes @ 0x40013800) - Data: C0 00 00 00 00 00 00 00 71 02 00 00 2C 20 00 00 ...  returns 0x00 (0001ms, 0614ms total)
T2F78 004:687 JLINK_ReadMem (0x40013818, 0x0004 Bytes, ...) -- CPU_ReadMem(4 bytes @ 0x40013818) - Data: 00 00 00 00  returns 0x00 (0000ms, 0614ms total)
T2F78 004:689 JLINK_ReadMem (0x40004800, 0x0018 Bytes, ...) -- CPU_ReadMem(24 bytes @ 0x40004800) - Data: C0 00 00 00 00 00 00 00 A6 0E 00 00 2C 20 00 00 ...  returns 0x00 (0000ms, 0614ms total)
T2F78 004:689 JLINK_ReadMem (0x40004818, 0x0004 Bytes, ...) -- CPU_ReadMem(4 bytes @ 0x40004818) - Data: 00 00 00 00  returns 0x00 (0001ms, 0615ms total)
T2F78 004:692 JLINK_ReadMem (0x08003B4A, 0x0002 Bytes, ...) -- CPU_ReadMem(64 bytes @ 0x08003B40) -- Updating C cache (64 bytes @ 0x08003B40) -- Read from C cache (2 bytes @ 0x08003B4A) - Data: 12 E0  returns 0x00 (0001ms, 0616ms total)
T2F78 004:693 JLINK_ReadMem (0x08003B4C, 0x003C Bytes, ...) -- CPU_ReadMem(64 bytes @ 0x08003B80) -- Updating C cache (64 bytes @ 0x08003B80) -- Read from C cache (60 bytes @ 0x08003B4C) - Data: 08 E0 23 48 00 EB 82 00 30 F8 11 00 18 44 83 B2 ...  returns 0x00 (0001ms, 0617ms total)
T3F8C 028:931 JLINK_Step() -- Read from C cache (2 bytes @ 0x08003B4A) -- CPU_ReadMem(4 bytes @ 0xE0001004) -- Simulated  returns 0x00 (0001ms, 0618ms total)
T3F8C 028:932 JLINK_ReadReg(R15 (PC))  returns 0x08003B72 (0000ms, 0618ms total)
T3F8C 028:932 JLINK_ReadReg(XPSR)  returns 0x6100001B (0000ms, 0618ms total)
T3F8C 028:932 JLINK_SetBPEx(Addr = 0x08003958, Type = 0xFFFFFFF2)  returns 0x00000008 (0000ms, 0618ms total)
T3F8C 028:932 JLINK_SetBPEx(Addr = 0x08003B4A, Type = 0xFFFFFFF2)  returns 0x00000009 (0000ms, 0618ms total)
T3F8C 028:932 JLINK_SetBPEx(Addr = 0x08003B7A, Type = 0xFFFFFFF2)  returns 0x0000000A (0000ms, 0618ms total)
T3F8C 028:932 JLINK_Go() -- CPU_WriteMem(4 bytes @ 0xE0002000) -- CPU_WriteMem(4 bytes @ 0xE0002000) -- CPU_WriteMem(4 bytes @ 0xE0002000) -- CPU_ReadMem(4 bytes @ 0xE0001000) -- CPU_WriteMem(4 bytes @ 0xE0002010) -- CPU_WriteMem(4 bytes @ 0xE0001004) (0002ms, 0620ms total)
T3F8C 029:035 JLINK_IsHalted()  returns TRUE (0001ms, 0621ms total)
T3F8C 029:036 JLINK_Halt()  returns 0x00 (0000ms, 0620ms total)
T3F8C 029:036 JLINK_IsHalted()  returns TRUE (0000ms, 0620ms total)
T3F8C 029:036 JLINK_IsHalted()  returns TRUE (0000ms, 0620ms total)
T3F8C 029:037 JLINK_IsHalted()  returns TRUE (0000ms, 0620ms total)
T3F8C 029:037 JLINK_ReadReg(R15 (PC))  returns 0x08003B7A (0000ms, 0620ms total)
T3F8C 029:037 JLINK_ReadReg(XPSR)  returns 0x6100001B (0000ms, 0620ms total)
T3F8C 029:037 JLINK_ClrBPEx(BPHandle = 0x00000008)  returns 0x00 (0000ms, 0620ms total)
T3F8C 029:037 JLINK_ClrBPEx(BPHandle = 0x00000009)  returns 0x00 (0000ms, 0620ms total)
T3F8C 029:037 JLINK_ClrBPEx(BPHandle = 0x0000000A)  returns 0x00 (0000ms, 0620ms total)
T3F8C 029:037 JLINK_ReadMemU32(0xE000ED30, 0x0001 Items, ...) -- CPU_ReadMem(4 bytes @ 0xE000ED30) - Data: 02 00 00 00  returns 0x01 (0000ms, 0620ms total)
T3F8C 029:037 JLINK_ReadMemU32(0xE0001028, 0x0001 Items, ...) -- CPU_ReadMem(4 bytes @ 0xE0001028) - Data: 00 00 00 00  returns 0x01 (0000ms, 0620ms total)
T3F8C 029:037 JLINK_ReadMemU32(0xE0001038, 0x0001 Items, ...) -- CPU_ReadMem(4 bytes @ 0xE0001038) - Data: 00 02 00 00  returns 0x01 (0000ms, 0620ms total)
T3F8C 029:037 JLINK_ReadMemU32(0xE0001048, 0x0001 Items, ...) -- CPU_ReadMem(4 bytes @ 0xE0001048) - Data: 00 00 00 00  returns 0x01 (0001ms, 0621ms total)
T3F8C 029:038 JLINK_ReadMemU32(0xE0001058, 0x0001 Items, ...) -- CPU_ReadMem(4 bytes @ 0xE0001058) - Data: 00 00 00 00  returns 0x01 (0000ms, 0621ms total)
T3F8C 029:038 JLINK_ReadReg(R0)  returns 0xB9D9B964 (0000ms, 0621ms total)
T3F8C 029:038 JLINK_ReadReg(R1)  returns 0x00000002 (0000ms, 0621ms total)
T3F8C 029:038 JLINK_ReadReg(R2)  returns 0x00000000 (0000ms, 0621ms total)
T3F8C 029:038 JLINK_ReadReg(R3)  returns 0x00000000 (0000ms, 0621ms total)
T3F8C 029:038 JLINK_ReadReg(R4)  returns 0x00000000 (0000ms, 0621ms total)
T3F8C 029:038 JLINK_ReadReg(R5)  returns 0x00000000 (0000ms, 0621ms total)
T3F8C 029:038 JLINK_ReadReg(R6)  returns 0x00000000 (0000ms, 0621ms total)
T3F8C 029:038 JLINK_ReadReg(R7)  returns 0x00000000 (0000ms, 0621ms total)
T3F8C 029:038 JLINK_ReadReg(R8)  returns 0x00000000 (0000ms, 0621ms total)
T3F8C 029:038 JLINK_ReadReg(R9)  returns 0x20000160 (0000ms, 0621ms total)
T3F8C 029:038 JLINK_ReadReg(R10)  returns 0x00000000 (0000ms, 0621ms total)
T3F8C 029:038 JLINK_ReadReg(R11)  returns 0x00000000 (0000ms, 0621ms total)
T3F8C 029:038 JLINK_ReadReg(R12)  returns 0x00000008 (0000ms, 0621ms total)
T3F8C 029:038 JLINK_ReadReg(R13 (SP))  returns 0x200006CC (0000ms, 0621ms total)
T3F8C 029:038 JLINK_ReadReg(R14)  returns 0x08003B8F (0000ms, 0621ms total)
T3F8C 029:038 JLINK_ReadReg(R15 (PC))  returns 0x08003B7A (0000ms, 0621ms total)
T3F8C 029:038 JLINK_ReadReg(XPSR)  returns 0x6100001B (0000ms, 0621ms total)
T3F8C 029:038 JLINK_ReadReg(MSP)  returns 0x200006CC (0000ms, 0621ms total)
T3F8C 029:038 JLINK_ReadReg(PSP)  returns 0x20001000 (0000ms, 0621ms total)
T3F8C 029:038 JLINK_ReadReg(CFBP)  returns 0x00000000 (0000ms, 0621ms total)
T2F78 029:039 JLINK_ReadMem (0x20000138, 0x0004 Bytes, ...) -- CPU_ReadMem(64 bytes @ 0x20000100) -- Updating C cache (64 bytes @ 0x20000100) -- Read from C cache (4 bytes @ 0x20000138) - Data: 00 00 00 00  returns 0x00 (0001ms, 0622ms total)
T2F78 029:040 JLINK_ReadMem (0x40010800, 0x000C Bytes, ...) -- CPU_ReadMem(12 bytes @ 0x40010800) - Data: 44 00 18 BB B1 14 81 18 F0 86 00 00  returns 0x00 (0000ms, 0622ms total)
T2F78 029:040 JLINK_ReadMem (0x4001080C, 0x0004 Bytes, ...) -- CPU_ReadMem(4 bytes @ 0x4001080C) - Data: 20 A0 00 00  returns 0x00 (0001ms, 0623ms total)
T2F78 029:041 JLINK_ReadMem (0x40010818, 0x0004 Bytes, ...) -- CPU_ReadMem(4 bytes @ 0x40010818) - Data: 00 00 00 00  returns 0x00 (0000ms, 0623ms total)
T2F78 029:043 JLINK_ReadMem (0x40013800, 0x0018 Bytes, ...) -- CPU_ReadMem(24 bytes @ 0x40013800) - Data: C0 00 00 00 00 00 00 00 71 02 00 00 2C 20 00 00 ...  returns 0x00 (0000ms, 0623ms total)
T2F78 029:043 JLINK_ReadMem (0x40013818, 0x0004 Bytes, ...) -- CPU_ReadMem(4 bytes @ 0x40013818) - Data: 00 00 00 00  returns 0x00 (0000ms, 0623ms total)
T2F78 029:043 JLINK_ReadMem (0x40004800, 0x0018 Bytes, ...) -- CPU_ReadMem(24 bytes @ 0x40004800) - Data: C0 00 00 00 00 00 00 00 A6 0E 00 00 2C 20 00 00 ...  returns 0x00 (0001ms, 0624ms total)
T2F78 029:044 JLINK_ReadMem (0x40004818, 0x0004 Bytes, ...) -- CPU_ReadMem(4 bytes @ 0x40004818) - Data: 00 00 00 00  returns 0x00 (0000ms, 0624ms total)
T2F78 029:047 JLINK_ReadMem (0x08003B7A, 0x0002 Bytes, ...) -- CPU_ReadMem(64 bytes @ 0x08003B40) -- Updating C cache (64 bytes @ 0x08003B40) -- Read from C cache (2 bytes @ 0x08003B7A) - Data: 00 98  returns 0x00 (0001ms, 0625ms total)
T2F78 029:048 JLINK_ReadMem (0x08003B7C, 0x003C Bytes, ...) -- CPU_ReadMem(64 bytes @ 0x08003B80) -- Updating C cache (64 bytes @ 0x08003B80) -- Read from C cache (60 bytes @ 0x08003B7C) - Data: 0C BD 08 B5 02 20 FD F7 12 F8 01 28 13 D1 FF F7 ...  returns 0x00 (0000ms, 0625ms total)
T3F8C 032:608 JLINK_Step() -- Read from C cache (2 bytes @ 0x08003B7A) -- CPU_ReadMem(4 bytes @ 0xE0001004) -- CPU_ReadMem(64 bytes @ 0x200006C0) -- Updating C cache (64 bytes @ 0x200006C0) -- Read from C cache (4 bytes @ 0x200006CC) -- Simulated  returns 0x00 (0002ms, 0627ms total)
T3F8C 032:610 JLINK_ReadReg(R15 (PC))  returns 0x08003B7C (0000ms, 0627ms total)
T3F8C 032:610 JLINK_ReadReg(XPSR)  returns 0x6100001B (0000ms, 0627ms total)
T3F8C 032:610 JLINK_SetBPEx(Addr = 0x08003958, Type = 0xFFFFFFF2)  returns 0x0000000B (0000ms, 0627ms total)
T3F8C 032:610 JLINK_SetBPEx(Addr = 0x08003B4A, Type = 0xFFFFFFF2)  returns 0x0000000C (0000ms, 0627ms total)
T3F8C 032:610 JLINK_SetBPEx(Addr = 0x08003B7A, Type = 0xFFFFFFF2)  returns 0x0000000D (0000ms, 0627ms total)
T3F8C 032:610 JLINK_Go() -- CPU_WriteMem(4 bytes @ 0xE0002000) -- CPU_WriteMem(4 bytes @ 0xE0002000) -- CPU_WriteMem(4 bytes @ 0xE0002000) -- CPU_ReadMem(4 bytes @ 0xE0001000) -- CPU_WriteMem(4 bytes @ 0xE0001004) (0002ms, 0629ms total)
T3F8C 032:713 JLINK_IsHalted()  returns TRUE (0002ms, 0631ms total)
T3F8C 032:715 JLINK_Halt()  returns 0x00 (0000ms, 0629ms total)
T3F8C 032:715 JLINK_IsHalted()  returns TRUE (0000ms, 0629ms total)
T3F8C 032:715 JLINK_IsHalted()  returns TRUE (0000ms, 0629ms total)
T3F8C 032:715 JLINK_IsHalted()  returns TRUE (0000ms, 0629ms total)
T3F8C 032:715 JLINK_ReadReg(R15 (PC))  returns 0x08003B4A (0000ms, 0629ms total)
T3F8C 032:715 JLINK_ReadReg(XPSR)  returns 0x6100001B (0000ms, 0629ms total)
T3F8C 032:715 JLINK_ClrBPEx(BPHandle = 0x0000000B)  returns 0x00 (0000ms, 0629ms total)
T3F8C 032:715 JLINK_ClrBPEx(BPHandle = 0x0000000C)  returns 0x00 (0000ms, 0629ms total)
T3F8C 032:715 JLINK_ClrBPEx(BPHandle = 0x0000000D)  returns 0x00 (0000ms, 0629ms total)
T3F8C 032:715 JLINK_ReadMemU32(0xE000ED30, 0x0001 Items, ...) -- CPU_ReadMem(4 bytes @ 0xE000ED30) - Data: 02 00 00 00  returns 0x01 (0000ms, 0629ms total)
T3F8C 032:715 JLINK_ReadMemU32(0xE0001028, 0x0001 Items, ...) -- CPU_ReadMem(4 bytes @ 0xE0001028) - Data: 00 00 00 00  returns 0x01 (0000ms, 0629ms total)
T3F8C 032:715 JLINK_ReadMemU32(0xE0001038, 0x0001 Items, ...) -- CPU_ReadMem(4 bytes @ 0xE0001038) - Data: 00 02 00 00  returns 0x01 (0001ms, 0630ms total)
T3F8C 032:716 JLINK_ReadMemU32(0xE0001048, 0x0001 Items, ...) -- CPU_ReadMem(4 bytes @ 0xE0001048) - Data: 00 00 00 00  returns 0x01 (0000ms, 0630ms total)
T3F8C 032:716 JLINK_ReadMemU32(0xE0001058, 0x0001 Items, ...) -- CPU_ReadMem(4 bytes @ 0xE0001058) - Data: 00 00 00 00  returns 0x01 (0000ms, 0630ms total)
T3F8C 032:716 JLINK_ReadReg(R0)  returns 0x00000000 (0000ms, 0630ms total)
T3F8C 032:716 JLINK_ReadReg(R1)  returns 0x00000000 (0000ms, 0630ms total)
T3F8C 032:716 JLINK_ReadReg(R2)  returns 0x00000000 (0000ms, 0630ms total)
T3F8C 032:716 JLINK_ReadReg(R3)  returns 0x00000000 (0000ms, 0630ms total)
T3F8C 032:716 JLINK_ReadReg(R4)  returns 0x00000000 (0000ms, 0630ms total)
T3F8C 032:716 JLINK_ReadReg(R5)  returns 0x00000000 (0000ms, 0630ms total)
T3F8C 032:716 JLINK_ReadReg(R6)  returns 0x00000000 (0000ms, 0630ms total)
T3F8C 032:717 JLINK_ReadReg(R7)  returns 0x00000000 (0000ms, 0631ms total)
T3F8C 032:717 JLINK_ReadReg(R8)  returns 0x00000000 (0000ms, 0631ms total)
T3F8C 032:717 JLINK_ReadReg(R9)  returns 0x20000160 (0000ms, 0631ms total)
T3F8C 032:717 JLINK_ReadReg(R10)  returns 0x00000000 (0000ms, 0631ms total)
T3F8C 032:717 JLINK_ReadReg(R11)  returns 0x00000000 (0000ms, 0631ms total)
T3F8C 032:717 JLINK_ReadReg(R12)  returns 0x00000008 (0000ms, 0631ms total)
T3F8C 032:717 JLINK_ReadReg(R13 (SP))  returns 0x200006CC (0000ms, 0631ms total)
T3F8C 032:717 JLINK_ReadReg(R14)  returns 0x08003B8F (0000ms, 0631ms total)
T3F8C 032:717 JLINK_ReadReg(R15 (PC))  returns 0x08003B4A (0000ms, 0631ms total)
T3F8C 032:717 JLINK_ReadReg(XPSR)  returns 0x6100001B (0000ms, 0631ms total)
T3F8C 032:717 JLINK_ReadReg(MSP)  returns 0x200006CC (0000ms, 0631ms total)
T3F8C 032:717 JLINK_ReadReg(PSP)  returns 0x20001000 (0000ms, 0631ms total)
T3F8C 032:717 JLINK_ReadReg(CFBP)  returns 0x00000000 (0000ms, 0631ms total)
T2F78 032:719 JLINK_ReadMem (0x20000138, 0x0004 Bytes, ...) -- CPU_ReadMem(64 bytes @ 0x20000100) -- Updating C cache (64 bytes @ 0x20000100) -- Read from C cache (4 bytes @ 0x20000138) - Data: 00 00 00 00  returns 0x00 (0001ms, 0632ms total)
T2F78 032:720 JLINK_ReadMem (0x40010800, 0x000C Bytes, ...) -- CPU_ReadMem(12 bytes @ 0x40010800) - Data: 44 00 18 BB B1 14 81 18 F0 86 00 00  returns 0x00 (0000ms, 0632ms total)
T2F78 032:720 JLINK_ReadMem (0x4001080C, 0x0004 Bytes, ...) -- CPU_ReadMem(4 bytes @ 0x4001080C) - Data: 20 A0 00 00  returns 0x00 (0000ms, 0632ms total)
T2F78 032:720 JLINK_ReadMem (0x40010818, 0x0004 Bytes, ...) -- CPU_ReadMem(4 bytes @ 0x40010818) - Data: 00 00 00 00  returns 0x00 (0000ms, 0632ms total)
T2F78 032:721 JLINK_ReadMem (0x40013800, 0x0018 Bytes, ...) -- CPU_ReadMem(24 bytes @ 0x40013800) - Data: C0 00 00 00 00 00 00 00 71 02 00 00 2C 20 00 00 ...  returns 0x00 (0000ms, 0632ms total)
T2F78 032:721 JLINK_ReadMem (0x40013818, 0x0004 Bytes, ...) -- CPU_ReadMem(4 bytes @ 0x40013818) - Data: 00 00 00 00  returns 0x00 (0000ms, 0632ms total)
T2F78 032:721 JLINK_ReadMem (0x40004800, 0x0018 Bytes, ...) -- CPU_ReadMem(24 bytes @ 0x40004800) - Data: C0 00 00 00 00 00 00 00 A6 0E 00 00 2C 20 00 00 ...  returns 0x00 (0001ms, 0633ms total)
T2F78 032:722 JLINK_ReadMem (0x40004818, 0x0004 Bytes, ...) -- CPU_ReadMem(4 bytes @ 0x40004818) - Data: 00 00 00 00  returns 0x00 (0000ms, 0633ms total)
T2F78 032:725 JLINK_ReadMem (0x08003B4A, 0x0002 Bytes, ...) -- CPU_ReadMem(64 bytes @ 0x08003B40) -- Updating C cache (64 bytes @ 0x08003B40) -- Read from C cache (2 bytes @ 0x08003B4A) - Data: 12 E0  returns 0x00 (0000ms, 0633ms total)
T2F78 032:725 JLINK_ReadMem (0x08003B4C, 0x003C Bytes, ...) -- CPU_ReadMem(64 bytes @ 0x08003B80) -- Updating C cache (64 bytes @ 0x08003B80) -- Read from C cache (60 bytes @ 0x08003B4C) - Data: 08 E0 23 48 00 EB 82 00 30 F8 11 00 18 44 83 B2 ...  returns 0x00 (0001ms, 0634ms total)
T3F8C 033:848 JLINK_Step() -- Read from C cache (2 bytes @ 0x08003B4A) -- CPU_ReadMem(4 bytes @ 0xE0001004) -- Simulated  returns 0x00 (0000ms, 0634ms total)
T3F8C 033:848 JLINK_ReadReg(R15 (PC))  returns 0x08003B72 (0000ms, 0634ms total)
T3F8C 033:848 JLINK_ReadReg(XPSR)  returns 0x6100001B (0000ms, 0634ms total)
T3F8C 033:848 JLINK_SetBPEx(Addr = 0x08003958, Type = 0xFFFFFFF2)  returns 0x0000000E (0000ms, 0634ms total)
T3F8C 033:848 JLINK_SetBPEx(Addr = 0x08003B4A, Type = 0xFFFFFFF2)  returns 0x0000000F (0000ms, 0634ms total)
T3F8C 033:848 JLINK_SetBPEx(Addr = 0x08003B7A, Type = 0xFFFFFFF2)  returns 0x00000010 (0000ms, 0634ms total)
T3F8C 033:848 JLINK_Go() -- CPU_WriteMem(4 bytes @ 0xE0002000) -- CPU_WriteMem(4 bytes @ 0xE0002000) -- CPU_WriteMem(4 bytes @ 0xE0002000) -- CPU_ReadMem(4 bytes @ 0xE0001000) -- CPU_WriteMem(4 bytes @ 0xE0001004) (0002ms, 0636ms total)
T3F8C 033:951 JLINK_IsHalted()  returns TRUE (0001ms, 0637ms total)
T3F8C 033:952 JLINK_Halt()  returns 0x00 (0000ms, 0636ms total)
T3F8C 033:952 JLINK_IsHalted()  returns TRUE (0000ms, 0636ms total)
T3F8C 033:952 JLINK_IsHalted()  returns TRUE (0000ms, 0636ms total)
T3F8C 033:952 JLINK_IsHalted()  returns TRUE (0000ms, 0636ms total)
T3F8C 033:952 JLINK_ReadReg(R15 (PC))  returns 0x08003B7A (0000ms, 0636ms total)
T3F8C 033:952 JLINK_ReadReg(XPSR)  returns 0x6100001B (0000ms, 0636ms total)
T3F8C 033:952 JLINK_ClrBPEx(BPHandle = 0x0000000E)  returns 0x00 (0001ms, 0637ms total)
T3F8C 033:953 JLINK_ClrBPEx(BPHandle = 0x0000000F)  returns 0x00 (0000ms, 0637ms total)
T3F8C 033:953 JLINK_ClrBPEx(BPHandle = 0x00000010)  returns 0x00 (0000ms, 0637ms total)
T3F8C 033:953 JLINK_ReadMemU32(0xE000ED30, 0x0001 Items, ...) -- CPU_ReadMem(4 bytes @ 0xE000ED30) - Data: 02 00 00 00  returns 0x01 (0000ms, 0637ms total)
T3F8C 033:953 JLINK_ReadMemU32(0xE0001028, 0x0001 Items, ...) -- CPU_ReadMem(4 bytes @ 0xE0001028) - Data: 00 00 00 00  returns 0x01 (0000ms, 0637ms total)
T3F8C 033:953 JLINK_ReadMemU32(0xE0001038, 0x0001 Items, ...) -- CPU_ReadMem(4 bytes @ 0xE0001038) - Data: 00 02 00 00  returns 0x01 (0000ms, 0637ms total)
T3F8C 033:953 JLINK_ReadMemU32(0xE0001048, 0x0001 Items, ...) -- CPU_ReadMem(4 bytes @ 0xE0001048) - Data: 00 00 00 00  returns 0x01 (0001ms, 0638ms total)
T3F8C 033:954 JLINK_ReadMemU32(0xE0001058, 0x0001 Items, ...) -- CPU_ReadMem(4 bytes @ 0xE0001058) - Data: 00 00 00 00  returns 0x01 (0000ms, 0638ms total)
T3F8C 033:954 JLINK_ReadReg(R0)  returns 0xB8C5BA78 (0000ms, 0638ms total)
T3F8C 033:954 JLINK_ReadReg(R1)  returns 0x00000002 (0000ms, 0638ms total)
T3F8C 033:954 JLINK_ReadReg(R2)  returns 0x00000000 (0000ms, 0638ms total)
T3F8C 033:954 JLINK_ReadReg(R3)  returns 0x00000000 (0000ms, 0638ms total)
T3F8C 033:954 JLINK_ReadReg(R4)  returns 0x00000000 (0000ms, 0638ms total)
T3F8C 033:954 JLINK_ReadReg(R5)  returns 0x00000000 (0000ms, 0638ms total)
T3F8C 033:954 JLINK_ReadReg(R6)  returns 0x00000000 (0000ms, 0638ms total)
T3F8C 033:954 JLINK_ReadReg(R7)  returns 0x00000000 (0000ms, 0638ms total)
T3F8C 033:954 JLINK_ReadReg(R8)  returns 0x00000000 (0000ms, 0638ms total)
T3F8C 033:954 JLINK_ReadReg(R9)  returns 0x20000160 (0000ms, 0638ms total)
T3F8C 033:954 JLINK_ReadReg(R10)  returns 0x00000000 (0000ms, 0638ms total)
T3F8C 033:954 JLINK_ReadReg(R11)  returns 0x00000000 (0000ms, 0638ms total)
T3F8C 033:954 JLINK_ReadReg(R12)  returns 0x00000008 (0000ms, 0638ms total)
T3F8C 033:954 JLINK_ReadReg(R13 (SP))  returns 0x200006CC (0000ms, 0638ms total)
T3F8C 033:954 JLINK_ReadReg(R14)  returns 0x08003B8F (0000ms, 0638ms total)
T3F8C 033:954 JLINK_ReadReg(R15 (PC))  returns 0x08003B7A (0000ms, 0638ms total)
T3F8C 033:954 JLINK_ReadReg(XPSR)  returns 0x6100001B (0000ms, 0638ms total)
T3F8C 033:954 JLINK_ReadReg(MSP)  returns 0x200006CC (0000ms, 0638ms total)
T3F8C 033:954 JLINK_ReadReg(PSP)  returns 0x20001000 (0000ms, 0638ms total)
T3F8C 033:954 JLINK_ReadReg(CFBP)  returns 0x00000000 (0000ms, 0638ms total)
T2F78 033:955 JLINK_ReadMem (0x20000138, 0x0004 Bytes, ...) -- CPU_ReadMem(64 bytes @ 0x20000100) -- Updating C cache (64 bytes @ 0x20000100) -- Read from C cache (4 bytes @ 0x20000138) - Data: 00 00 00 00  returns 0x00 (0000ms, 0638ms total)
T2F78 033:955 JLINK_ReadMem (0x40010800, 0x000C Bytes, ...) -- CPU_ReadMem(12 bytes @ 0x40010800) - Data: 44 00 18 BB B1 14 81 18 30 86 00 00  returns 0x00 (0001ms, 0639ms total)
T2F78 033:956 JLINK_ReadMem (0x4001080C, 0x0004 Bytes, ...) -- CPU_ReadMem(4 bytes @ 0x4001080C) - Data: 20 A0 00 00  returns 0x00 (0000ms, 0639ms total)
T2F78 033:956 JLINK_ReadMem (0x40010818, 0x0004 Bytes, ...) -- CPU_ReadMem(4 bytes @ 0x40010818) - Data: 00 00 00 00  returns 0x00 (0000ms, 0639ms total)
T2F78 033:958 JLINK_ReadMem (0x40013800, 0x0018 Bytes, ...) -- CPU_ReadMem(24 bytes @ 0x40013800) - Data: C0 00 00 00 00 00 00 00 71 02 00 00 2C 20 00 00 ...  returns 0x00 (0000ms, 0639ms total)
T2F78 033:958 JLINK_ReadMem (0x40013818, 0x0004 Bytes, ...) -- CPU_ReadMem(4 bytes @ 0x40013818) - Data: 00 00 00 00  returns 0x00 (0001ms, 0640ms total)
T2F78 033:959 JLINK_ReadMem (0x40004800, 0x0018 Bytes, ...) -- CPU_ReadMem(24 bytes @ 0x40004800) - Data: C0 00 00 00 00 00 00 00 A6 0E 00 00 2C 20 00 00 ...  returns 0x00 (0000ms, 0640ms total)
T2F78 033:959 JLINK_ReadMem (0x40004818, 0x0004 Bytes, ...) -- CPU_ReadMem(4 bytes @ 0x40004818) - Data: 00 00 00 00  returns 0x00 (0001ms, 0641ms total)
T2F78 033:962 JLINK_ReadMem (0x08003B7A, 0x0002 Bytes, ...) -- CPU_ReadMem(64 bytes @ 0x08003B40) -- Updating C cache (64 bytes @ 0x08003B40) -- Read from C cache (2 bytes @ 0x08003B7A) - Data: 00 98  returns 0x00 (0000ms, 0641ms total)
T2F78 033:962 JLINK_ReadMem (0x08003B7C, 0x003C Bytes, ...) -- CPU_ReadMem(64 bytes @ 0x08003B80) -- Updating C cache (64 bytes @ 0x08003B80) -- Read from C cache (60 bytes @ 0x08003B7C) - Data: 0C BD 08 B5 02 20 FD F7 12 F8 01 28 13 D1 FF F7 ...  returns 0x00 (0001ms, 0642ms total)
T3F8C 041:065 JLINK_Step() -- Read from C cache (2 bytes @ 0x08003B7A) -- CPU_ReadMem(4 bytes @ 0xE0001004) -- CPU_ReadMem(64 bytes @ 0x200006C0) -- Updating C cache (64 bytes @ 0x200006C0) -- Read from C cache (4 bytes @ 0x200006CC) -- Simulated  returns 0x00 (0002ms, 0644ms total)
T3F8C 041:067 JLINK_ReadReg(R15 (PC))  returns 0x08003B7C (0000ms, 0644ms total)
T3F8C 041:067 JLINK_ReadReg(XPSR)  returns 0x6100001B (0000ms, 0644ms total)
T3F8C 041:067 JLINK_SetBPEx(Addr = 0x08003958, Type = 0xFFFFFFF2)  returns 0x00000011 (0000ms, 0644ms total)
T3F8C 041:067 JLINK_SetBPEx(Addr = 0x08003B4A, Type = 0xFFFFFFF2)  returns 0x00000012 (0000ms, 0644ms total)
T3F8C 041:067 JLINK_SetBPEx(Addr = 0x08003B7A, Type = 0xFFFFFFF2)  returns 0x00000013 (0000ms, 0644ms total)
T3F8C 041:067 JLINK_SetBPEx(Addr = 0x08003B6A, Type = 0xFFFFFFF2)  returns 0x00000014 (0000ms, 0644ms total)
T3F8C 041:067 JLINK_Go() -- CPU_WriteMem(4 bytes @ 0xE0002000) -- CPU_WriteMem(4 bytes @ 0xE0002000) -- CPU_WriteMem(4 bytes @ 0xE0002000) -- CPU_WriteMem(4 bytes @ 0xE0002000) -- CPU_ReadMem(4 bytes @ 0xE0001000) -- CPU_WriteMem(4 bytes @ 0xE0002014) -- CPU_WriteMem(4 bytes @ 0xE0001004) (0002ms, 0646ms total)
T3F8C 041:170 JLINK_IsHalted()  returns TRUE (0002ms, 0648ms total)
T3F8C 041:172 JLINK_Halt()  returns 0x00 (0000ms, 0646ms total)
T3F8C 041:172 JLINK_IsHalted()  returns TRUE (0000ms, 0646ms total)
T3F8C 041:172 JLINK_IsHalted()  returns TRUE (0000ms, 0646ms total)
T3F8C 041:172 JLINK_IsHalted()  returns TRUE (0000ms, 0646ms total)
T3F8C 041:172 JLINK_ReadReg(R15 (PC))  returns 0x08003B4A (0000ms, 0646ms total)
T3F8C 041:172 JLINK_ReadReg(XPSR)  returns 0x6100001B (0000ms, 0646ms total)
T3F8C 041:172 JLINK_ClrBPEx(BPHandle = 0x00000011)  returns 0x00 (0000ms, 0646ms total)
T3F8C 041:172 JLINK_ClrBPEx(BPHandle = 0x00000012)  returns 0x00 (0000ms, 0646ms total)
T3F8C 041:172 JLINK_ClrBPEx(BPHandle = 0x00000013)  returns 0x00 (0000ms, 0646ms total)
T3F8C 041:172 JLINK_ClrBPEx(BPHandle = 0x00000014)  returns 0x00 (0000ms, 0646ms total)
T3F8C 041:172 JLINK_ReadMemU32(0xE000ED30, 0x0001 Items, ...) -- CPU_ReadMem(4 bytes @ 0xE000ED30) - Data: 02 00 00 00  returns 0x01 (0000ms, 0646ms total)
T3F8C 041:172 JLINK_ReadMemU32(0xE0001028, 0x0001 Items, ...) -- CPU_ReadMem(4 bytes @ 0xE0001028) - Data: 00 00 00 00  returns 0x01 (0000ms, 0646ms total)
T3F8C 041:172 JLINK_ReadMemU32(0xE0001038, 0x0001 Items, ...) -- CPU_ReadMem(4 bytes @ 0xE0001038) - Data: 00 02 00 00  returns 0x01 (0001ms, 0647ms total)
T3F8C 041:173 JLINK_ReadMemU32(0xE0001048, 0x0001 Items, ...) -- CPU_ReadMem(4 bytes @ 0xE0001048) - Data: 00 00 00 00  returns 0x01 (0000ms, 0647ms total)
T3F8C 041:173 JLINK_ReadMemU32(0xE0001058, 0x0001 Items, ...) -- CPU_ReadMem(4 bytes @ 0xE0001058) - Data: 00 00 00 00  returns 0x01 (0000ms, 0647ms total)
T3F8C 041:173 JLINK_ReadReg(R0)  returns 0x00000000 (0000ms, 0647ms total)
T3F8C 041:173 JLINK_ReadReg(R1)  returns 0x00000000 (0000ms, 0647ms total)
T3F8C 041:173 JLINK_ReadReg(R2)  returns 0x00000000 (0000ms, 0647ms total)
T3F8C 041:173 JLINK_ReadReg(R3)  returns 0x00000000 (0000ms, 0647ms total)
T3F8C 041:173 JLINK_ReadReg(R4)  returns 0x00000000 (0000ms, 0647ms total)
T3F8C 041:173 JLINK_ReadReg(R5)  returns 0x00000000 (0000ms, 0647ms total)
T3F8C 041:173 JLINK_ReadReg(R6)  returns 0x00000000 (0000ms, 0647ms total)
T3F8C 041:173 JLINK_ReadReg(R7)  returns 0x00000000 (0000ms, 0647ms total)
T3F8C 041:173 JLINK_ReadReg(R8)  returns 0x00000000 (0000ms, 0647ms total)
T3F8C 041:173 JLINK_ReadReg(R9)  returns 0x20000160 (0000ms, 0647ms total)
T3F8C 041:173 JLINK_ReadReg(R10)  returns 0x00000000 (0000ms, 0647ms total)
T3F8C 041:173 JLINK_ReadReg(R11)  returns 0x00000000 (0000ms, 0647ms total)
T3F8C 041:173 JLINK_ReadReg(R12)  returns 0x00000008 (0000ms, 0647ms total)
T3F8C 041:173 JLINK_ReadReg(R13 (SP))  returns 0x200006CC (0000ms, 0647ms total)
T3F8C 041:173 JLINK_ReadReg(R14)  returns 0x08003B8F (0000ms, 0647ms total)
T3F8C 041:173 JLINK_ReadReg(R15 (PC))  returns 0x08003B4A (0000ms, 0647ms total)
T3F8C 041:173 JLINK_ReadReg(XPSR)  returns 0x6100001B (0000ms, 0647ms total)
T3F8C 041:173 JLINK_ReadReg(MSP)  returns 0x200006CC (0000ms, 0647ms total)
T3F8C 041:173 JLINK_ReadReg(PSP)  returns 0x20001000 (0000ms, 0647ms total)
T3F8C 041:173 JLINK_ReadReg(CFBP)  returns 0x00000000 (0000ms, 0647ms total)
T2F78 041:174 JLINK_ReadMem (0x20000138, 0x0004 Bytes, ...) -- CPU_ReadMem(64 bytes @ 0x20000100) -- Updating C cache (64 bytes @ 0x20000100) -- Read from C cache (4 bytes @ 0x20000138) - Data: 00 00 00 00  returns 0x00 (0001ms, 0648ms total)
T2F78 041:175 JLINK_ReadMem (0x40010800, 0x000C Bytes, ...) -- CPU_ReadMem(12 bytes @ 0x40010800) - Data: 44 00 18 BB B1 14 81 18 F0 86 00 00  returns 0x00 (0000ms, 0648ms total)
T2F78 041:175 JLINK_ReadMem (0x4001080C, 0x0004 Bytes, ...) -- CPU_ReadMem(4 bytes @ 0x4001080C) - Data: 20 A0 00 00  returns 0x00 (0000ms, 0648ms total)
T2F78 041:175 JLINK_ReadMem (0x40010818, 0x0004 Bytes, ...) -- CPU_ReadMem(4 bytes @ 0x40010818) - Data: 00 00 00 00  returns 0x00 (0000ms, 0648ms total)
T2F78 041:177 JLINK_ReadMem (0x40013800, 0x0018 Bytes, ...) -- CPU_ReadMem(24 bytes @ 0x40013800) - Data: C0 00 00 00 00 00 00 00 71 02 00 00 2C 20 00 00 ...  returns 0x00 (0000ms, 0648ms total)
T2F78 041:177 JLINK_ReadMem (0x40013818, 0x0004 Bytes, ...) -- CPU_ReadMem(4 bytes @ 0x40013818) - Data: 00 00 00 00  returns 0x00 (0001ms, 0649ms total)
T2F78 041:178 JLINK_ReadMem (0x40004800, 0x0018 Bytes, ...) -- CPU_ReadMem(24 bytes @ 0x40004800) - Data: C0 00 00 00 00 00 00 00 A6 0E 00 00 2C 20 00 00 ...  returns 0x00 (0000ms, 0649ms total)
T2F78 041:178 JLINK_ReadMem (0x40004818, 0x0004 Bytes, ...) -- CPU_ReadMem(4 bytes @ 0x40004818) - Data: 00 00 00 00  returns 0x00 (0001ms, 0650ms total)
T2F78 041:182 JLINK_ReadMem (0x08003B4A, 0x0002 Bytes, ...) -- CPU_ReadMem(64 bytes @ 0x08003B40) -- Updating C cache (64 bytes @ 0x08003B40) -- Read from C cache (2 bytes @ 0x08003B4A) - Data: 12 E0  returns 0x00 (0000ms, 0650ms total)
T2F78 041:182 JLINK_ReadMem (0x08003B4C, 0x003C Bytes, ...) -- CPU_ReadMem(64 bytes @ 0x08003B80) -- Updating C cache (64 bytes @ 0x08003B80) -- Read from C cache (60 bytes @ 0x08003B4C) - Data: 08 E0 23 48 00 EB 82 00 30 F8 11 00 18 44 83 B2 ...  returns 0x00 (0001ms, 0651ms total)
T3F8C 041:888 JLINK_Step() -- Read from C cache (2 bytes @ 0x08003B4A) -- CPU_ReadMem(4 bytes @ 0xE0001004) -- Simulated  returns 0x00 (0000ms, 0651ms total)
T3F8C 041:888 JLINK_ReadReg(R15 (PC))  returns 0x08003B72 (0000ms, 0651ms total)
T3F8C 041:888 JLINK_ReadReg(XPSR)  returns 0x6100001B (0000ms, 0651ms total)
T3F8C 041:888 JLINK_SetBPEx(Addr = 0x08003958, Type = 0xFFFFFFF2)  returns 0x00000015 (0000ms, 0651ms total)
T3F8C 041:888 JLINK_SetBPEx(Addr = 0x08003B4A, Type = 0xFFFFFFF2)  returns 0x00000016 (0000ms, 0651ms total)
T3F8C 041:888 JLINK_SetBPEx(Addr = 0x08003B7A, Type = 0xFFFFFFF2)  returns 0x00000017 (0000ms, 0651ms total)
T3F8C 041:888 JLINK_SetBPEx(Addr = 0x08003B6A, Type = 0xFFFFFFF2)  returns 0x00000018 (0000ms, 0651ms total)
T3F8C 041:888 JLINK_Go() -- CPU_WriteMem(4 bytes @ 0xE0002000) -- CPU_WriteMem(4 bytes @ 0xE0002000) -- CPU_WriteMem(4 bytes @ 0xE0002000) -- CPU_WriteMem(4 bytes @ 0xE0002000) -- CPU_ReadMem(4 bytes @ 0xE0001000) -- CPU_WriteMem(4 bytes @ 0xE0001004) (0003ms, 0654ms total)
T3F8C 041:991 JLINK_IsHalted()  returns TRUE (0002ms, 0656ms total)
T3F8C 041:993 JLINK_Halt()  returns 0x00 (0000ms, 0654ms total)
T3F8C 041:993 JLINK_IsHalted()  returns TRUE (0000ms, 0654ms total)
T3F8C 041:993 JLINK_IsHalted()  returns TRUE (0000ms, 0654ms total)
T3F8C 041:993 JLINK_IsHalted()  returns TRUE (0000ms, 0654ms total)
T3F8C 041:993 JLINK_ReadReg(R15 (PC))  returns 0x08003B6A (0000ms, 0654ms total)
T3F8C 041:993 JLINK_ReadReg(XPSR)  returns 0x6100001B (0000ms, 0654ms total)
T3F8C 041:993 JLINK_ClrBPEx(BPHandle = 0x00000015)  returns 0x00 (0000ms, 0654ms total)
T3F8C 041:993 JLINK_ClrBPEx(BPHandle = 0x00000016)  returns 0x00 (0000ms, 0654ms total)
T3F8C 041:993 JLINK_ClrBPEx(BPHandle = 0x00000017)  returns 0x00 (0000ms, 0654ms total)
T3F8C 041:993 JLINK_ClrBPEx(BPHandle = 0x00000018)  returns 0x00 (0000ms, 0654ms total)
T3F8C 041:993 JLINK_ReadMemU32(0xE000ED30, 0x0001 Items, ...) -- CPU_ReadMem(4 bytes @ 0xE000ED30) - Data: 02 00 00 00  returns 0x01 (0000ms, 0654ms total)
T3F8C 041:993 JLINK_ReadMemU32(0xE0001028, 0x0001 Items, ...) -- CPU_ReadMem(4 bytes @ 0xE0001028) - Data: 00 00 00 00  returns 0x01 (0001ms, 0655ms total)
